TD538 000:008.890   SEGGER J-Link V8.76 Log File
TD538 000:009.003   DLL Compiled: Oct  8 2025 11:30:23
TD538 000:009.006   Logging started @ 2025-12-23 03:22
TD538 000:009.010   Process: C:\Users\senki\AppData\Local\Keil_v5\UV4\UV4.exe
TD538 000:009.020 - 9.012ms 
TD538 000:009.026 JLINK_SetWarnOutHandler(...)
TD538 000:009.029 - 0.004ms 
TD538 000:009.035 JLINK_OpenEx(...)
TD538 000:012.691   Firmware: J-Link Pro V4 compiled Sep 22 2029 15:00:37
TD538 000:014.060   Firmware: J-Link Pro V4 compiled Sep 22 2029 15:00:37
TD538 000:014.154   Decompressing FW timestamp took 77 us
TD538 000:017.246   Hardware: V12.00
TD538 000:017.281   S/N: 601012478
TD538 000:017.297   OEM: SEGGER
TD538 000:017.312   Feature(s): RDI, FlashBP, FlashDL, JFlash, GDB
TD538 000:018.547   Bootloader: (FW returned invalid version)
TD538 000:019.536   USB speed mode: High speed (480 MBit/s)
TD538 000:019.550   Active J-Link Eco level: 3 (https://wiki.segger.com/J-Link_Eco)
TD538 000:020.358   TELNET listener socket opened on port 19021
TD538 000:020.602   WEBSRV WEBSRV_Init(): Starting webserver thread(s)
TD538 000:020.807   WEBSRV Webserver running on local port 19080
TD538 000:020.946   Looking for J-Link GUI Server exe at: C:\Users\senki\AppData\Local\Keil_v5\ARM\Segger\JLinkGUIServer.exe
TD538 000:021.033   Looking for J-Link GUI Server exe at: C:\Program Files\SEGGER\JLink_V876\JLinkGUIServer.exe
TD538 000:021.056   Forking J-Link GUI Server: C:\Program Files\SEGGER\JLink_V876\JLinkGUIServer.exe
TD538 000:023.069   J-Link GUI Server info: "J-Link GUI server V8.76 "
TD538 000:023.293 - 14.253ms returns "O.K."
TD538 000:023.313 JLINK_GetEmuCaps()
TD538 000:023.320 - 0.005ms returns 0xB9FF7BBF
TD538 000:023.333 JLINK_TIF_GetAvailable(...)
TD538 000:023.782 - 0.448ms 
TD538 000:023.793 JLINK_SetErrorOutHandler(...)
TD538 000:023.797 - 0.003ms 
TD538 000:023.818 JLINK_ExecCommand("ProjectFile = "D:\Space\Cosmos\Joint\Joint\MDK-ARM\JLinkSettings.ini"", ...). 
TD538 000:032.334   Ref file found at: C:\Users\senki\AppData\Local\Keil_v5\ARM\Segger\JLinkDevices.ref
TD538 000:032.396   REF file references invalid XML file: C:\Program Files\SEGGER\JLink_V876\JLinkDevices.xml
TD538 000:033.084 - 9.266ms returns 0x00
TD538 000:033.122 JLINK_ExecCommand("Device = STM32G431CBUx", ...). 
TD538 000:033.702   Flash bank @ 0x08000000: SFL: Parsing sectorization info from ELF file
TD538 000:033.709     FlashDevice.SectorInfo[0]: .SectorSize = 0x00000800, .SectorStartAddr = 0x00000000
TD538 000:033.714   FlashBank @0x08000000: Sectorization info from SFL ELF file ignored because sectorization override from DLL / XML file is active.
TD538 000:033.787   Device "STM32G431CB" selected.
TD538 000:033.950 - 0.822ms returns 0x00
TD538 000:033.957 JLINK_ExecCommand("DisableConnectionTimeout", ...). 
TD538 000:033.967   ERROR: Unknown command
TD538 000:033.972 - 0.009ms returns 0x01
TD538 000:033.976 JLINK_GetHardwareVersion()
TD538 000:033.981 - 0.003ms returns 120000
TD538 000:033.984 JLINK_GetDLLVersion()
TD538 000:033.987 - 0.003ms returns 87600
TD538 000:033.991 JLINK_GetOEMString(...)
TD538 000:033.995 JLINK_GetFirmwareString(...)
TD538 000:033.998 - 0.003ms 
TD538 000:034.013 JLINK_GetDLLVersion()
TD538 000:034.016 - 0.002ms returns 87600
TD538 000:034.021 JLINK_GetCompileDateTime()
TD538 000:034.024 - 0.003ms 
TD538 000:034.030 JLINK_GetFirmwareString(...)
TD538 000:034.033 - 0.003ms 
TD538 000:034.038 JLINK_GetHardwareVersion()
TD538 000:034.041 - 0.003ms returns 120000
TD538 000:034.047 JLINK_GetSN()
TD538 000:034.050 - 0.003ms returns 601012478
TD538 000:034.055 JLINK_GetOEMString(...)
TD538 000:034.064 JLINK_TIF_Select(JLINKARM_TIF_SWD)
TD538 000:035.929 - 1.865ms returns 0x00
TD538 000:035.942 JLINK_HasError()
TD538 000:035.955 JLINK_SetSpeed(10000)
TD538 000:036.324 - 0.369ms 
TD538 000:036.329 JLINK_GetId()
TD538 000:036.789   InitTarget() start
TD538 000:036.802    J-Link Script File: Executing InitTarget()
TD538 000:037.449   SWD selected. Executing JTAG -> SWD switching sequence.
TD538 000:040.100   DAP initialized successfully.
TD538 000:052.252   InitTarget() end - Took 15.4ms
TD538 000:053.101   Found SW-DP with ID 0x2BA01477
TD538 000:055.638   DPIDR: 0x2BA01477
TD538 000:055.653   CoreSight SoC-400 or earlier
TD538 000:055.660   Scanning AP map to find all available APs
TD538 000:056.437   AP[1]: Stopped AP scan as end of AP map has been reached
TD538 000:056.444   AP[0]: AHB-AP (IDR: 0x24770011, ADDR: 0x00000000)
TD538 000:056.450   Iterating through AP map to find AHB-AP to use
TD538 000:057.243   AP[0]: Core found
TD538 000:057.259   AP[0]: AHB-AP ROM base: 0xE00FF000
TD538 000:057.721   CPUID register: 0x410FC241. Implementer code: 0x41 (ARM)
TD538 000:057.732   Found Cortex-M4 r0p1, Little endian.
TD538 000:058.483   -- Max. mem block: 0x00003BA8
TD538 000:059.307   CPU_ReadMem(4 bytes @ 0xE000EDF0)
TD538 000:059.789   CPU_ReadMem(4 bytes @ 0xE0002000)
TD538 000:060.251   FPUnit: 6 code (BP) slots and 2 literal slots
TD538 000:060.256   CPU_ReadMem(4 bytes @ 0xE000EDFC)
TD538 000:060.731   CPU_WriteMem(4 bytes @ 0xE000EDFC)
TD538 000:061.207   CPU_ReadMem(4 bytes @ 0xE0001000)
TD538 000:061.615   CPU_WriteMem(4 bytes @ 0xE0001000)
TD538 000:062.190   CPU_ReadMem(4 bytes @ 0xE000ED88)
TD538 000:062.618   CPU_WriteMem(4 bytes @ 0xE000ED88)
TD538 000:063.205   CPU_ReadMem(4 bytes @ 0xE000ED88)
TD538 000:063.657   CPU_WriteMem(4 bytes @ 0xE000ED88)
TD538 000:064.239   CoreSight components:
TD538 000:064.289   ROMTbl[0] @ E00FF000
TD538 000:064.309   CPU_ReadMem(64 bytes @ 0xE00FF000)
TD538 000:064.867   CPU_ReadMem(32 bytes @ 0xE000EFE0)
TD538 000:065.419   [0][0]: E000E000 CID B105E00D PID 000BB00C SCS-M7
TD538 000:065.425   CPU_ReadMem(32 bytes @ 0xE0001FE0)
TD538 000:065.906   [0][1]: E0001000 CID B105E00D PID 003BB002 DWT
TD538 000:065.911   CPU_ReadMem(32 bytes @ 0xE0002FE0)
TD538 000:066.417   [0][2]: E0002000 CID B105E00D PID 002BB003 FPB
TD538 000:066.421   CPU_ReadMem(32 bytes @ 0xE0000FE0)
TD538 000:066.906   [0][3]: E0000000 CID B105E00D PID 003BB001 ITM
TD538 000:066.911   CPU_ReadMem(32 bytes @ 0xE0040FE0)
TD538 000:067.419   [0][4]: E0040000 CID B105900D PID 000BB9A1 TPIU
TD538 000:067.427   CPU_ReadMem(32 bytes @ 0xE0041FE0)
TD538 000:067.920   [0][5]: E0041000 CID B105900D PID 000BB925 ETM
TD538 000:068.342 - 32.012ms returns 0x2BA01477
TD538 000:068.356 JLINK_GetDLLVersion()
TD538 000:068.359 - 0.003ms returns 87600
TD538 000:068.363 JLINK_CORE_GetFound()
TD538 000:068.367 - 0.003ms returns 0xE0000FF
TD538 000:068.427 JLINK_GetDebugInfo(0x100 = JLINKARM_ROM_TABLE_ADDR_INDEX)
TD538 000:068.430   Value=0xE00FF000
TD538 000:068.435 - 0.008ms returns 0
TD538 000:068.442 JLINK_GetDebugInfo(0x100 = JLINKARM_ROM_TABLE_ADDR_INDEX)
TD538 000:068.445   Value=0xE00FF000
TD538 000:068.453 - 0.010ms returns 0
TD538 000:068.457 JLINK_GetDebugInfo(0x101 = JLINKARM_DEBUG_INFO_ETM_ADDR_INDEX)
TD538 000:068.460   Value=0xE0041000
TD538 000:068.464 - 0.007ms returns 0
TD538 000:068.468 JLINK_ReadMemEx(0xE0041FD0, 0x20 Bytes, Flags = 0x02000004)
TD538 000:068.488   CPU_ReadMem(32 bytes @ 0xE0041FD0)
TD538 000:069.091   Data:  04 00 00 00 00 00 00 00 00 00 00 00 00 00 00 00 ...
TD538 000:069.107 - 0.639ms returns 32 (0x20)
TD538 000:069.121 JLINK_GetDebugInfo(0x102 = JLINKARM_DEBUG_INFO_MTB_ADDR_INDEX)
TD538 000:069.132   Value=0x00000000
TD538 000:069.146 - 0.025ms returns 0
TD538 000:069.158 JLINK_GetDebugInfo(0x103 = JLINKARM_DEBUG_INFO_TPIU_ADDR_INDEX)
TD538 000:069.169   Value=0xE0040000
TD538 000:069.183 - 0.024ms returns 0
TD538 000:069.195 JLINK_GetDebugInfo(0x104 = JLINKARM_DEBUG_INFO_ITM_ADDR_INDEX)
TD538 000:069.205   Value=0xE0000000
TD538 000:069.220 - 0.025ms returns 0
TD538 000:069.232 JLINK_GetDebugInfo(0x105 = JLINKARM_DEBUG_INFO_DWT_ADDR_INDEX)
TD538 000:069.242   Value=0xE0001000
TD538 000:069.256 - 0.025ms returns 0
TD538 000:069.269 JLINK_GetDebugInfo(0x106 = JLINKARM_DEBUG_INFO_FPB_ADDR_INDEX)
TD538 000:069.279   Value=0xE0002000
TD538 000:069.293 - 0.024ms returns 0
TD538 000:069.305 JLINK_GetDebugInfo(0x107 = JLINKARM_DEBUG_INFO_NVIC_ADDR_INDEX)
TD538 000:069.320   Value=0xE000E000
TD538 000:069.339 - 0.034ms returns 0
TD538 000:069.352 JLINK_GetDebugInfo(0x10C = JLINKARM_DEBUG_INFO_DBG_ADDR_INDEX)
TD538 000:069.362   Value=0xE000EDF0
TD538 000:069.376 - 0.024ms returns 0
TD538 000:069.389 JLINK_GetDebugInfo(0x01 = Unknown)
TD538 000:069.399   Value=0x00000001
TD538 000:069.413 - 0.025ms returns 0
TD538 000:069.426 JLINK_ReadMemU32(0xE000ED00, 0x1 Items)
TD538 000:069.440   CPU_ReadMem(4 bytes @ 0xE000ED00)
TD538 000:069.853   Data:  41 C2 0F 41
TD538 000:069.860   Debug reg: CPUID
TD538 000:069.864 - 0.438ms returns 1 (0x1)
TD538 000:069.870 JLINK_GetDebugInfo(0x10F = JLINKARM_DEBUG_INFO_HAS_CORTEX_M_SECURITY_EXT_INDEX)
TD538 000:069.873   Value=0x00000000
TD538 000:069.877 - 0.007ms returns 0
TD538 000:069.881 JLINK_HasError()
TD538 000:069.886 JLINK_SetResetType(JLINKARM_CM3_RESET_TYPE_NORMAL)
TD538 000:069.889 - 0.003ms returns JLINKARM_CM3_RESET_TYPE_NORMAL
TD538 000:069.893 JLINK_Reset()
TD538 000:069.899   JLINK_GetResetTypeDesc
TD538 000:069.903   - 0.003ms 
TD538 000:069.916   Reset type: NORMAL (https://wiki.segger.com/J-Link_Reset_Strategies)
TD538 000:069.923   CPU is running
TD538 000:069.928   CPU_WriteMem(4 bytes @ 0xE000EDF0)
TD538 000:070.446   CPU is running
TD538 000:070.460   CPU_WriteMem(4 bytes @ 0xE000EDFC)
TD538 000:070.918   Reset: Halt core after reset via DEMCR.VC_CORERESET.
TD538 000:071.691   Reset: Reset device via AIRCR.SYSRESETREQ.
TD538 000:071.704   CPU is running
TD538 000:071.710   CPU_WriteMem(4 bytes @ 0xE000ED0C)
TD538 000:126.185   CPU_ReadMem(4 bytes @ 0xE000EDF0)
TD538 000:126.618   CPU_ReadMem(4 bytes @ 0xE000EDF0)
TD538 000:129.237   CPU_WriteMem(4 bytes @ 0xE000EDFC)
TD538 000:135.456   CPU_ReadMem(4 bytes @ 0xE000EDF0)
TD538 000:138.071   CPU_WriteMem(4 bytes @ 0xE0002000)
TD538 000:138.540   CPU_ReadMem(4 bytes @ 0xE000EDFC)
TD538 000:139.002   CPU_ReadMem(4 bytes @ 0xE0001000)
TD538 000:139.577 - 69.681ms 
TD538 000:139.730 JLINK_HasError()
TD538 000:148.795 JLINK_ReadReg(R15 (PC))
TD538 000:148.818 - 0.022ms returns 0x08000414
TD538 000:148.831 JLINK_ReadReg(XPSR)
TD538 000:148.842 - 0.011ms returns 0x01000000
TD538 000:148.856 JLINK_Halt()
TD538 000:148.867 - 0.011ms returns 0x00
TD538 000:148.883 JLINK_ReadMemU32(0xE000EDF0, 0x1 Items)
TD538 000:148.907   CPU_ReadMem(4 bytes @ 0xE000EDF0)
TD538 000:149.421   Data:  03 00 03 00
TD538 000:149.427   Debug reg: DHCSR
TD538 000:149.432 - 0.550ms returns 1 (0x1)
TD538 000:149.443 JLINK_WriteU32(0xE000EDF0, 0xA05F0003)
TD538 000:149.446   Debug reg: DHCSR
TD538 000:149.613   CPU_WriteMem(4 bytes @ 0xE000EDF0)
TD538 000:150.220 - 0.782ms returns 0 (0x00000000)
TD538 000:150.224 JLINK_WriteU32(0xE000EDFC, 0x01000000)
TD538 000:150.228   Debug reg: DEMCR
TD538 000:150.233   CPU_WriteMem(4 bytes @ 0xE000EDFC)
TD538 000:150.655 - 0.431ms returns 0 (0x00000000)
TD538 000:150.688 JLINK_GetHWStatus(...)
TD538 000:151.030 - 0.341ms returns 0
TD538 000:151.042 JLINK_GetNumBPUnits(Type = 0xFFFFFF00)
TD538 000:151.046 - 0.003ms returns 0x06
TD538 000:151.049 JLINK_GetNumBPUnits(Type = 0xF0)
TD538 000:151.052 - 0.003ms returns 0x2000
TD538 000:151.056 JLINK_GetNumWPUnits()
TD538 000:151.059 - 0.003ms returns 4
TD538 000:151.068 JLINK_GetSpeed()
TD538 000:151.072 - 0.003ms returns 10000
TD538 000:151.078 JLINK_ReadMemU32(0xE000E004, 0x1 Items)
TD538 000:151.083   CPU_ReadMem(4 bytes @ 0xE000E004)
TD538 000:151.479   Data:  03 00 00 00
TD538 000:151.484 - 0.406ms returns 1 (0x1)
TD538 000:151.488 JLINK_ReadMemU32(0xE000E004, 0x1 Items)
TD538 000:151.492   CPU_ReadMem(4 bytes @ 0xE000E004)
TD538 000:151.999   Data:  03 00 00 00
TD538 000:152.004 - 0.516ms returns 1 (0x1)
TD538 000:152.009 JLINK_WriteMemEx(0xE0001000, 0x0000001C Bytes, Flags = 0x02000004)
TD538 000:152.012   Data:  01 00 00 00 00 00 00 00 00 00 00 00 00 00 00 00 ...
TD538 000:152.018   CPU_WriteMem(28 bytes @ 0xE0001000)
TD538 000:152.578 - 0.569ms returns 0x1C
TD538 000:152.583 JLINK_HasError()
TD538 000:152.587 JLINK_ReadReg(R15 (PC))
TD538 000:152.596 - 0.008ms returns 0x08000414
TD538 000:152.599 JLINK_ReadReg(XPSR)
TD538 000:152.602 - 0.003ms returns 0x01000000
TD538 000:156.581 JLINK_ReadMemEx(0xE0001004, 0x4 Bytes, Flags = 0x02000000)
TD538 000:156.598   Data:  00 00 00 00
TD538 000:156.605   Debug reg: DWT_CYCCNT
TD538 000:156.612 - 0.031ms returns 4 (0x4)
TD538 000:239.108 JLINK_HasError()
TD538 000:239.141 JLINK_SetResetType(JLINKARM_CM3_RESET_TYPE_NORMAL)
TD538 000:239.146 - 0.004ms returns JLINKARM_CM3_RESET_TYPE_NORMAL
TD538 000:239.151 JLINK_Reset()
TD538 000:239.163   JLINK_GetResetTypeDesc
TD538 000:239.166   - 0.003ms 
TD538 000:239.181   Reset type: NORMAL (https://wiki.segger.com/J-Link_Reset_Strategies)
TD538 000:239.188   CPU_WriteMem(4 bytes @ 0xE000EDF0)
TD538 000:239.672   CPU_WriteMem(4 bytes @ 0xE000EDFC)
TD538 000:240.211   Reset: Halt core after reset via DEMCR.VC_CORERESET.
TD538 000:240.944   Reset: Reset device via AIRCR.SYSRESETREQ.
TD538 000:240.952   CPU_WriteMem(4 bytes @ 0xE000ED0C)
TD538 000:294.927   CPU_ReadMem(4 bytes @ 0xE000EDF0)
TD538 000:295.384   CPU_ReadMem(4 bytes @ 0xE000EDF0)
TD538 000:295.886   CPU_WriteMem(4 bytes @ 0xE000EDFC)
TD538 000:302.558   CPU_ReadMem(4 bytes @ 0xE000EDF0)
TD538 000:305.266   CPU_WriteMem(4 bytes @ 0xE0002000)
TD538 000:305.799   CPU_ReadMem(4 bytes @ 0xE000EDFC)
TD538 000:306.256   CPU_ReadMem(4 bytes @ 0xE0001000)
TD538 000:306.756 - 67.604ms 
TD538 000:306.839 JLINK_HasError()
TD538 000:306.845 JLINK_ReadReg(R15 (PC))
TD538 000:306.852 - 0.006ms returns 0x08000414
TD538 000:306.855 JLINK_ReadReg(XPSR)
TD538 000:306.858 - 0.003ms returns 0x01000000
TD538 000:307.150 JLINK_ReadMemEx(0x08000414, 0x3C Bytes, Flags = 0x02000000)
TD538 000:307.161   CPU_ReadMem(128 bytes @ 0x08000400)
TD538 000:307.883    -- Updating C cache (128 bytes @ 0x08000400)
TD538 000:307.900    -- Read from C cache (60 bytes @ 0x08000414)
TD538 000:307.915   Data:  09 48 80 47 09 48 00 47 FE E7 FE E7 FE E7 FE E7 ...
TD538 000:307.923 - 0.772ms returns 60 (0x3C)
TD538 000:307.930 JLINK_ReadMemEx(0x08000414, 0x2 Bytes, Flags = 0x02000000)
TD538 000:307.937    -- Read from C cache (2 bytes @ 0x08000414)
TD538 000:307.943   Data:  09 48
TD538 000:307.949 - 0.019ms returns 2 (0x2)
TD538 000:308.026 JLINK_ReadMemEx(0x08000416, 0x2 Bytes, Flags = 0x02000000)
TD538 000:308.032    -- Read from C cache (2 bytes @ 0x08000416)
TD538 000:308.038   Data:  80 47
TD538 000:308.044 - 0.018ms returns 2 (0x2)
TD538 000:308.060 JLINK_ReadMemEx(0x08000416, 0x2 Bytes, Flags = 0x02000000)
TD538 000:308.064    -- Read from C cache (2 bytes @ 0x08000416)
TD538 000:308.070   Data:  80 47
TD538 000:308.075 - 0.015ms returns 2 (0x2)
TD538 000:308.080 JLINK_ReadMemEx(0x08000418, 0x3C Bytes, Flags = 0x02000000)
TD538 000:308.084    -- Read from C cache (60 bytes @ 0x08000418)
TD538 000:308.090   Data:  09 48 00 47 FE E7 FE E7 FE E7 FE E7 FE E7 FE E7 ...
TD538 000:308.095 - 0.015ms returns 60 (0x3C)
TD538 000:308.099 JLINK_ReadMemEx(0x08000418, 0x2 Bytes, Flags = 0x02000000)
TD538 000:308.103    -- Read from C cache (2 bytes @ 0x08000418)
TD538 000:308.108   Data:  09 48
TD538 000:308.113 - 0.014ms returns 2 (0x2)
TD538 001:363.889 JLINK_HasError()
TD538 001:363.924 JLINK_ReadReg(R0)
TD538 001:364.418 - 0.493ms returns 0x00000000
TD538 001:364.436 JLINK_ReadReg(R1)
TD538 001:364.439 - 0.003ms returns 0x00000000
TD538 001:364.443 JLINK_ReadReg(R2)
TD538 001:364.446 - 0.002ms returns 0x00000000
TD538 001:364.449 JLINK_ReadReg(R3)
TD538 001:364.453 - 0.003ms returns 0x00000000
TD538 001:364.456 JLINK_ReadReg(R4)
TD538 001:364.459 - 0.002ms returns 0x00000000
TD538 001:364.462 JLINK_ReadReg(R5)
TD538 001:364.465 - 0.002ms returns 0x00000000
TD538 001:364.468 JLINK_ReadReg(R6)
TD538 001:364.471 - 0.002ms returns 0x00000000
TD538 001:364.475 JLINK_ReadReg(R7)
TD538 001:364.477 - 0.002ms returns 0x00000000
TD538 001:364.493 JLINK_ReadReg(R8)
TD538 001:364.496 - 0.015ms returns 0x00000000
TD538 001:364.500 JLINK_ReadReg(R9)
TD538 001:364.503 - 0.002ms returns 0x00000000
TD538 001:364.567 JLINK_ReadReg(R10)
TD538 001:364.570 - 0.003ms returns 0x00000000
TD538 001:364.573 JLINK_ReadReg(R11)
TD538 001:364.576 - 0.002ms returns 0x00000000
TD538 001:364.579 JLINK_ReadReg(R12)
TD538 001:364.582 - 0.002ms returns 0x00000000
TD538 001:364.586 JLINK_ReadReg(R13 (SP))
TD538 001:364.589 - 0.003ms returns 0x20002ED8
TD538 001:364.593 JLINK_ReadReg(R14)
TD538 001:364.595 - 0.002ms returns 0xFFFFFFFF
TD538 001:364.599 JLINK_ReadReg(R15 (PC))
TD538 001:364.602 - 0.003ms returns 0x08000414
TD538 001:364.605 JLINK_ReadReg(XPSR)
TD538 001:364.608 - 0.002ms returns 0x01000000
TD538 001:364.612 JLINK_ReadReg(MSP)
TD538 001:364.615 - 0.002ms returns 0x20002ED8
TD538 001:364.618 JLINK_ReadReg(PSP)
TD538 001:364.621 - 0.002ms returns 0x00000000
TD538 001:364.624 JLINK_ReadReg(CFBP)
TD538 001:364.627 - 0.002ms returns 0x00000000
TD538 001:364.631 JLINK_ReadReg(FPSCR)
TD538 001:367.482 - 2.849ms returns 0x00000000
TD538 001:367.508 JLINK_ReadReg(FPS0)
TD538 001:367.527 - 0.018ms returns 0x00000000
TD538 001:367.544 JLINK_ReadReg(FPS1)
TD538 001:367.555 - 0.010ms returns 0x00000000
TD538 001:367.568 JLINK_ReadReg(FPS2)
TD538 001:367.578 - 0.010ms returns 0x00000000
TD538 001:367.590 JLINK_ReadReg(FPS3)
TD538 001:367.600 - 0.010ms returns 0x00000000
TD538 001:367.612 JLINK_ReadReg(FPS4)
TD538 001:367.622 - 0.010ms returns 0x00000000
TD538 001:367.634 JLINK_ReadReg(FPS5)
TD538 001:367.644 - 0.010ms returns 0x00000000
TD538 001:367.656 JLINK_ReadReg(FPS6)
TD538 001:367.667 - 0.010ms returns 0x00000000
TD538 001:367.678 JLINK_ReadReg(FPS7)
TD538 001:367.689 - 0.010ms returns 0x00000000
TD538 001:367.701 JLINK_ReadReg(FPS8)
TD538 001:367.711 - 0.010ms returns 0x00000000
TD538 001:367.726 JLINK_ReadReg(FPS9)
TD538 001:367.746 - 0.019ms returns 0x00000000
TD538 001:367.768 JLINK_ReadReg(FPS10)
TD538 001:367.781 - 0.012ms returns 0x00000000
TD538 001:367.793 JLINK_ReadReg(FPS11)
TD538 001:367.803 - 0.010ms returns 0x00000000
TD538 001:367.816 JLINK_ReadReg(FPS12)
TD538 001:367.829 - 0.013ms returns 0x00000000
TD538 001:367.841 JLINK_ReadReg(FPS13)
TD538 001:367.852 - 0.010ms returns 0x00000000
TD538 001:367.864 JLINK_ReadReg(FPS14)
TD538 001:367.876 - 0.012ms returns 0x00000000
TD538 001:367.929 JLINK_ReadReg(FPS15)
TD538 001:367.939 - 0.010ms returns 0x00000000
TD538 001:367.951 JLINK_ReadReg(FPS16)
TD538 001:367.961 - 0.010ms returns 0x00000000
TD538 001:367.973 JLINK_ReadReg(FPS17)
TD538 001:367.983 - 0.010ms returns 0x00000000
TD538 001:367.995 JLINK_ReadReg(FPS18)
TD538 001:368.005 - 0.010ms returns 0x00000000
TD538 001:368.017 JLINK_ReadReg(FPS19)
TD538 001:368.028 - 0.010ms returns 0x00000000
TD538 001:368.040 JLINK_ReadReg(FPS20)
TD538 001:368.051 - 0.010ms returns 0x00000000
TD538 001:368.062 JLINK_ReadReg(FPS21)
TD538 001:368.073 - 0.010ms returns 0x00000000
TD538 001:368.085 JLINK_ReadReg(FPS22)
TD538 001:368.095 - 0.010ms returns 0x00000000
TD538 001:368.107 JLINK_ReadReg(FPS23)
TD538 001:368.118 - 0.010ms returns 0x00000000
TD538 001:368.130 JLINK_ReadReg(FPS24)
TD538 001:368.140 - 0.010ms returns 0x00000000
TD538 001:368.152 JLINK_ReadReg(FPS25)
TD538 001:368.162 - 0.010ms returns 0x00000000
TD538 001:368.175 JLINK_ReadReg(FPS26)
TD538 001:368.185 - 0.010ms returns 0x00000000
TD538 001:368.197 JLINK_ReadReg(FPS27)
TD538 001:368.217 - 0.019ms returns 0x00000000
TD538 001:368.229 JLINK_ReadReg(FPS28)
TD538 001:368.239 - 0.010ms returns 0x00000000
TD538 001:368.251 JLINK_ReadReg(FPS29)
TD538 001:368.261 - 0.010ms returns 0x00000000
TD538 001:368.273 JLINK_ReadReg(FPS30)
TD538 001:368.284 - 0.010ms returns 0x00000000
TD538 001:368.296 JLINK_ReadReg(FPS31)
TD538 001:368.306 - 0.010ms returns 0x00000000
TD538 001:380.130 JLINK_ReadMemEx(0x20000144, 0x4 Bytes, Flags = 0x02000000)
TD538 001:380.158   CPU_ReadMem(64 bytes @ 0x20000140)
TD538 001:380.785    -- Updating C cache (64 bytes @ 0x20000140)
TD538 001:380.805    -- Read from C cache (4 bytes @ 0x20000144)
TD538 001:380.821   Data:  00 00 00 00
TD538 001:380.851 - 0.720ms returns 4 (0x4)
TD538 001:381.374 JLINK_ReadMemEx(0x20000144, 0x4 Bytes, Flags = 0x02000000)
TD538 001:381.380    -- Read from C cache (4 bytes @ 0x20000144)
TD538 001:381.384   Data:  00 00 00 00
TD538 001:381.388 - 0.014ms returns 4 (0x4)
TD538 001:381.400 JLINK_ReadMemEx(0x20000144, 0x4 Bytes, Flags = 0x02000000)
TD538 001:381.403    -- Read from C cache (4 bytes @ 0x20000144)
TD538 001:381.407   Data:  00 00 00 00
TD538 001:381.411 - 0.011ms returns 4 (0x4)
TAC24 001:439.347 JLINK_ReadMemEx(0x08000414, 0x2 Bytes, Flags = 0x02000000)
TAC24 001:439.379    -- Read from C cache (2 bytes @ 0x08000414)
TAC24 001:439.386   Data:  09 48
TAC24 001:439.393 - 0.046ms returns 2 (0x2)
TAC24 001:439.399 JLINK_HasError()
TAC24 001:439.406 JLINK_SetBPEx(Addr = 0x08009AA0, Type = 0xFFFFFFF2)
TAC24 001:439.414 - 0.008ms returns 0x00000001
TAC24 001:439.419 JLINK_HasError()
TAC24 001:439.424 JLINK_HasError()
TAC24 001:439.429 JLINK_Go()
TAC24 001:439.447   CPU_WriteMem(4 bytes @ 0xE0002000)
TAC24 001:440.152   CPU_ReadMem(4 bytes @ 0xE0001000)
TAC24 001:440.661   CPU_WriteMem(4 bytes @ 0xE0002008)
TAC24 001:440.677   CPU_WriteMem(4 bytes @ 0xE000200C)
TAC24 001:440.682   CPU_WriteMem(4 bytes @ 0xE0002010)
TAC24 001:440.686   CPU_WriteMem(4 bytes @ 0xE0002014)
TAC24 001:440.691   CPU_WriteMem(4 bytes @ 0xE0002018)
TAC24 001:440.695   CPU_WriteMem(4 bytes @ 0xE000201C)
TAC24 001:442.035   CPU_WriteMem(4 bytes @ 0xE0001004)
TAC24 001:447.618   Memory map 'after startup completion point' is active
TAC24 001:447.638 - 8.208ms 
TAC24 001:548.187 JLINK_HasError()
TAC24 001:548.216 JLINK_IsHalted()
TAC24 001:550.378 - 2.160ms returns TRUE
TAC24 001:550.425 JLINK_HasError()
TAC24 001:550.443 JLINK_Halt()
TAC24 001:550.457 - 0.013ms returns 0x00
TAC24 001:550.486 JLINK_IsHalted()
TAC24 001:550.523 - 0.036ms returns TRUE
TAC24 001:550.540 JLINK_IsHalted()
TAC24 001:550.554 - 0.013ms returns TRUE
TAC24 001:550.570 JLINK_IsHalted()
TAC24 001:550.583 - 0.012ms returns TRUE
TAC24 001:550.600 JLINK_HasError()
TAC24 001:550.619 JLINK_ReadReg(R15 (PC))
TAC24 001:550.638 - 0.019ms returns 0x08009AA0
TAC24 001:550.650 JLINK_ReadReg(XPSR)
TAC24 001:550.662 - 0.011ms returns 0x61000000
TAC24 001:550.680 JLINK_HasError()
TAC24 001:550.693 JLINK_ClrBPEx(BPHandle = 0x00000001)
TAC24 001:550.705 - 0.012ms returns 0x00
TAC24 001:550.718 JLINK_HasError()
TAC24 001:550.730 JLINK_HasError()
TAC24 001:550.743 JLINK_ReadMemU32(0xE000ED30, 0x1 Items)
TAC24 001:550.768   CPU_ReadMem(4 bytes @ 0xE000ED30)
TAC24 001:551.286   Data:  02 00 00 00
TAC24 001:551.292 - 0.549ms returns 1 (0x1)
TAC24 001:551.296 JLINK_ReadMemU32(0xE0001028, 0x1 Items)
TAC24 001:551.300   CPU_ReadMem(4 bytes @ 0xE0001028)
TAC24 001:551.776   Data:  00 00 00 00
TAC24 001:551.793   Debug reg: DWT_FUNC[0]
TAC24 001:551.808 - 0.511ms returns 1 (0x1)
TAC24 001:551.822 JLINK_ReadMemU32(0xE0001038, 0x1 Items)
TAC24 001:551.834   CPU_ReadMem(4 bytes @ 0xE0001038)
TAC24 001:552.277   Data:  00 02 00 00
TAC24 001:552.293   Debug reg: DWT_FUNC[1]
TAC24 001:552.308 - 0.485ms returns 1 (0x1)
TAC24 001:552.321 JLINK_ReadMemU32(0xE0001048, 0x1 Items)
TAC24 001:552.333   CPU_ReadMem(4 bytes @ 0xE0001048)
TAC24 001:552.765   Data:  00 00 00 00
TAC24 001:552.779   Debug reg: DWT_FUNC[2]
TAC24 001:552.783 - 0.462ms returns 1 (0x1)
TAC24 001:552.789 JLINK_ReadMemU32(0xE0001058, 0x1 Items)
TAC24 001:552.796   CPU_ReadMem(4 bytes @ 0xE0001058)
TAC24 001:553.252   Data:  00 00 00 00
TAC24 001:553.257   Debug reg: DWT_FUNC[3]
TAC24 001:553.261 - 0.473ms returns 1 (0x1)
TAC24 001:553.283 JLINK_HasError()
TAC24 001:553.287 JLINK_ReadReg(R0)
TAC24 001:553.290 - 0.003ms returns 0x200028D8
TAC24 001:553.294 JLINK_ReadReg(R1)
TAC24 001:553.297 - 0.002ms returns 0x20002AD8
TAC24 001:553.300 JLINK_ReadReg(R2)
TAC24 001:553.303 - 0.002ms returns 0x20002AD8
TAC24 001:553.306 JLINK_ReadReg(R3)
TAC24 001:553.309 - 0.002ms returns 0x20002AD8
TAC24 001:553.312 JLINK_ReadReg(R4)
TAC24 001:553.315 - 0.002ms returns 0x00000000
TAC24 001:553.324 JLINK_ReadReg(R5)
TAC24 001:553.329 - 0.005ms returns 0x20002878
TAC24 001:553.333 JLINK_ReadReg(R6)
TAC24 001:553.336 - 0.003ms returns 0x00000000
TAC24 001:553.339 JLINK_ReadReg(R7)
TAC24 001:553.342 - 0.002ms returns 0x00000000
TAC24 001:553.345 JLINK_ReadReg(R8)
TAC24 001:553.348 - 0.002ms returns 0x00000000
TAC24 001:553.351 JLINK_ReadReg(R9)
TAC24 001:553.354 - 0.002ms returns 0x00000000
TAC24 001:553.358 JLINK_ReadReg(R10)
TAC24 001:553.360 - 0.002ms returns 0x0800C9FC
TAC24 001:553.364 JLINK_ReadReg(R11)
TAC24 001:553.366 - 0.002ms returns 0x00000000
TAC24 001:553.370 JLINK_ReadReg(R12)
TAC24 001:553.373 - 0.002ms returns 0x200028B8
TAC24 001:553.376 JLINK_ReadReg(R13 (SP))
TAC24 001:553.379 - 0.003ms returns 0x20002ED8
TAC24 001:553.382 JLINK_ReadReg(R14)
TAC24 001:553.385 - 0.002ms returns 0x08000333
TAC24 001:553.389 JLINK_ReadReg(R15 (PC))
TAC24 001:553.391 - 0.002ms returns 0x08009AA0
TAC24 001:553.395 JLINK_ReadReg(XPSR)
TAC24 001:553.398 - 0.002ms returns 0x61000000
TAC24 001:553.401 JLINK_ReadReg(MSP)
TAC24 001:553.404 - 0.002ms returns 0x20002ED8
TAC24 001:553.407 JLINK_ReadReg(PSP)
TAC24 001:553.410 - 0.002ms returns 0x00000000
TAC24 001:553.413 JLINK_ReadReg(CFBP)
TAC24 001:553.416 - 0.002ms returns 0x04000000
TAC24 001:553.420 JLINK_ReadReg(FPSCR)
TAC24 001:556.359 - 2.936ms returns 0x03000000
TAC24 001:556.412 JLINK_ReadReg(FPS0)
TAC24 001:556.434 - 0.021ms returns 0x00000000
TAC24 001:556.557 JLINK_ReadReg(FPS1)
TAC24 001:556.607 - 0.049ms returns 0x00000000
TAC24 001:556.620 JLINK_ReadReg(FPS2)
TAC24 001:556.631 - 0.011ms returns 0x00000000
TAC24 001:556.643 JLINK_ReadReg(FPS3)
TAC24 001:556.653 - 0.010ms returns 0x00000000
TAC24 001:556.665 JLINK_ReadReg(FPS4)
TAC24 001:556.676 - 0.010ms returns 0x00000000
TAC24 001:556.688 JLINK_ReadReg(FPS5)
TAC24 001:556.699 - 0.010ms returns 0x00000000
TAC24 001:556.710 JLINK_ReadReg(FPS6)
TAC24 001:556.721 - 0.010ms returns 0x00000000
TAC24 001:556.732 JLINK_ReadReg(FPS7)
TAC24 001:556.743 - 0.010ms returns 0x00000000
TAC24 001:556.754 JLINK_ReadReg(FPS8)
TAC24 001:556.765 - 0.010ms returns 0x00000000
TAC24 001:556.776 JLINK_ReadReg(FPS9)
TAC24 001:556.787 - 0.010ms returns 0x00000000
TAC24 001:556.799 JLINK_ReadReg(FPS10)
TAC24 001:556.809 - 0.010ms returns 0x00000000
TAC24 001:556.822 JLINK_ReadReg(FPS11)
TAC24 001:556.832 - 0.010ms returns 0x00000000
TAC24 001:556.844 JLINK_ReadReg(FPS12)
TAC24 001:556.854 - 0.010ms returns 0x00000000
TAC24 001:556.866 JLINK_ReadReg(FPS13)
TAC24 001:556.876 - 0.010ms returns 0x00000000
TAC24 001:556.888 JLINK_ReadReg(FPS14)
TAC24 001:556.898 - 0.010ms returns 0x00000000
TAC24 001:556.910 JLINK_ReadReg(FPS15)
TAC24 001:556.920 - 0.009ms returns 0x00000000
TAC24 001:556.931 JLINK_ReadReg(FPS16)
TAC24 001:556.942 - 0.010ms returns 0x00000000
TAC24 001:556.954 JLINK_ReadReg(FPS17)
TAC24 001:556.964 - 0.010ms returns 0x00000000
TAC24 001:556.976 JLINK_ReadReg(FPS18)
TAC24 001:556.986 - 0.010ms returns 0x00000000
TAC24 001:556.998 JLINK_ReadReg(FPS19)
TAC24 001:557.008 - 0.010ms returns 0x00000000
TAC24 001:557.069 JLINK_ReadReg(FPS20)
TAC24 001:557.120 - 0.050ms returns 0x00000000
TAC24 001:557.136 JLINK_ReadReg(FPS21)
TAC24 001:557.146 - 0.010ms returns 0x00000000
TAC24 001:557.151 JLINK_ReadReg(FPS22)
TAC24 001:557.155 - 0.004ms returns 0x00000000
TAC24 001:557.160 JLINK_ReadReg(FPS23)
TAC24 001:557.164 - 0.003ms returns 0x00000000
TAC24 001:557.168 JLINK_ReadReg(FPS24)
TAC24 001:557.172 - 0.003ms returns 0x00000000
TAC24 001:557.176 JLINK_ReadReg(FPS25)
TAC24 001:557.180 - 0.003ms returns 0x00000000
TAC24 001:557.184 JLINK_ReadReg(FPS26)
TAC24 001:557.188 - 0.003ms returns 0x00000000
TAC24 001:557.192 JLINK_ReadReg(FPS27)
TAC24 001:557.196 - 0.003ms returns 0x00000000
TAC24 001:557.216 JLINK_ReadReg(FPS28)
TAC24 001:557.234 - 0.017ms returns 0x00000000
TAC24 001:557.252 JLINK_ReadReg(FPS29)
TAC24 001:557.257 - 0.004ms returns 0x00000000
TAC24 001:557.260 JLINK_ReadReg(FPS30)
TAC24 001:557.263 - 0.002ms returns 0x00000000
TAC24 001:557.271 JLINK_ReadReg(FPS31)
TAC24 001:557.276 - 0.005ms returns 0x00000000
TAC24 001:557.283 JLINK_ReadMemEx(0x2000006C, 0x4 Bytes, Flags = 0x02000000)
TAC24 001:557.291   CPU_ReadMem(64 bytes @ 0x20000040)
TAC24 001:557.862    -- Updating C cache (64 bytes @ 0x20000040)
TAC24 001:557.875    -- Read from C cache (4 bytes @ 0x2000006C)
TAC24 001:557.880   Data:  00 00 00 00
TAC24 001:557.885 - 0.601ms returns 4 (0x4)
TD538 001:558.523 JLINK_ReadMemEx(0xE000ED28, 0x4 Bytes, Flags = 0x02000000)
TD538 001:558.535   CPU_ReadMem(4 bytes @ 0xE000ED28)
TD538 001:559.035   Data:  00 00 00 00
TD538 001:559.047 - 0.524ms returns 4 (0x4)
TD538 001:562.399 JLINK_ReadMemEx(0x20000144, 0x4 Bytes, Flags = 0x02000000)
TD538 001:562.416   CPU_ReadMem(64 bytes @ 0x20000140)
TD538 001:563.011    -- Updating C cache (64 bytes @ 0x20000140)
TD538 001:563.025    -- Read from C cache (4 bytes @ 0x20000144)
TD538 001:563.029   Data:  00 00 00 00
TD538 001:563.034 - 0.635ms returns 4 (0x4)
TD538 001:567.067 JLINK_ReadMemEx(0x08009AA0, 0x3C Bytes, Flags = 0x02000000)
TD538 001:567.082   CPU_ReadMem(128 bytes @ 0x08009A80)
TD538 001:567.713    -- Updating C cache (128 bytes @ 0x08009A80)
TD538 001:567.720    -- Read from C cache (60 bytes @ 0x08009AA0)
TD538 001:567.725   Data:  FA F7 FE FF FD F7 6A F9 1E A3 60 22 23 A1 03 20 ...
TD538 001:567.729 - 0.662ms returns 60 (0x3C)
TD538 001:567.734 JLINK_ReadMemEx(0x08009AA0, 0x2 Bytes, Flags = 0x02000000)
TD538 001:567.737    -- Read from C cache (2 bytes @ 0x08009AA0)
TD538 001:567.742   Data:  FA F7
TD538 001:567.746 - 0.012ms returns 2 (0x2)
TD538 001:567.750 JLINK_ReadMemEx(0x08009AA2, 0x2 Bytes, Flags = 0x02000000)
TD538 001:567.753    -- Read from C cache (2 bytes @ 0x08009AA2)
TD538 001:567.757   Data:  FE FF
TD538 001:567.761 - 0.011ms returns 2 (0x2)
TAC24 003:589.892 JLINK_ReadMemEx(0x08009AA0, 0x2 Bytes, Flags = 0x02000000)
TAC24 003:589.927    -- Read from C cache (2 bytes @ 0x08009AA0)
TAC24 003:589.933   Data:  FA F7
TAC24 003:589.940 - 0.047ms returns 2 (0x2)
TAC24 003:589.944 JLINK_HasError()
TAC24 003:589.950 JLINK_HasError()
TAC24 003:589.954 JLINK_Go()
TAC24 003:590.448   CPU_ReadMem(4 bytes @ 0xE0001000)
TAC24 003:590.968   CPU_WriteMem(4 bytes @ 0xE0002008)
TAC24 003:592.021 - 2.066ms 
TAC24 003:693.239 JLINK_HasError()
TAC24 003:693.267 JLINK_IsHalted()
TAC24 003:693.822 - 0.553ms returns FALSE
TAC24 003:794.209 JLINK_HasError()
TAC24 003:794.244 JLINK_IsHalted()
TAC24 003:794.849 - 0.604ms returns FALSE
TAC24 003:895.587 JLINK_HasError()
TAC24 003:895.607 JLINK_IsHalted()
TAC24 003:896.069 - 0.461ms returns FALSE
TAC24 003:996.684 JLINK_HasError()
TAC24 003:996.712 JLINK_IsHalted()
TAC24 003:997.202 - 0.488ms returns FALSE
TAC24 004:097.417 JLINK_HasError()
TAC24 004:097.444 JLINK_HasError()
TAC24 004:097.449 JLINK_ReadMemU32(0xE0001004, 0x1 Items)
TAC24 004:097.468   CPU_ReadMem(4 bytes @ 0xE0001004)
TAC24 004:097.976   Data:  7C 58 D0 04
TAC24 004:097.984   Debug reg: DWT_CYCCNT
TAC24 004:097.989 - 0.540ms returns 1 (0x1)
TD538 004:099.969 JLINK_ReadMemEx(0x20000144, 0x4 Bytes, Flags = 0x02000000)
TD538 004:099.995   CPU_ReadMem(4 bytes @ 0x20000144)
TD538 004:100.467   Data:  00 00 00 00
TD538 004:100.492 - 0.523ms returns 4 (0x4)
TAC24 004:102.252 JLINK_IsHalted()
TAC24 004:102.678 - 0.425ms returns FALSE
TAC24 004:203.069 JLINK_HasError()
TAC24 004:203.095 JLINK_IsHalted()
TAC24 004:203.580 - 0.482ms returns FALSE
TAC24 004:304.045 JLINK_HasError()
TAC24 004:304.107 JLINK_IsHalted()
TAC24 004:304.779 - 0.669ms returns FALSE
TAC24 004:405.825 JLINK_HasError()
TAC24 004:405.853 JLINK_IsHalted()
TAC24 004:406.315 - 0.461ms returns FALSE
TAC24 004:507.291 JLINK_HasError()
TAC24 004:507.360 JLINK_IsHalted()
TAC24 004:508.047 - 0.686ms returns FALSE
TD538 004:548.447 JLINK_HasError()
TD538 004:548.466 JLINK_SetBPEx(Addr = 0x0800248A, Type = 0xFFFFFFF2)
TD538 004:548.472   CPU is running
TD538 004:548.481   CPU is running
TD538 004:548.493   CPU_WriteMem(4 bytes @ 0xE0002000)
TD538 004:549.211   CPU is running
TD538 004:549.261   CPU_WriteMem(4 bytes @ 0xE0002008)
TD538 004:549.742 - 1.275ms returns 0x00000002
TAC24 004:608.467 JLINK_HasError()
TAC24 004:608.525 JLINK_IsHalted()
TAC24 004:610.627 - 2.100ms returns TRUE
TAC24 004:610.671 JLINK_HasError()
TAC24 004:610.686 JLINK_Halt()
TAC24 004:610.698 - 0.010ms returns 0x00
TAC24 004:610.710 JLINK_IsHalted()
TAC24 004:610.721 - 0.010ms returns TRUE
TAC24 004:610.733 JLINK_IsHalted()
TAC24 004:610.743 - 0.009ms returns TRUE
TAC24 004:610.755 JLINK_IsHalted()
TAC24 004:610.766 - 0.010ms returns TRUE
TAC24 004:610.779 JLINK_HasError()
TAC24 004:610.793 JLINK_ReadReg(R15 (PC))
TAC24 004:610.808 - 0.015ms returns 0x0800248A
TAC24 004:610.821 JLINK_ReadReg(XPSR)
TAC24 004:610.832 - 0.010ms returns 0x01000000
TAC24 004:610.849 JLINK_HasError()
TAC24 004:610.862 JLINK_ClrBPEx(BPHandle = 0x00000002)
TAC24 004:610.874 - 0.012ms returns 0x00
TAC24 004:610.886 JLINK_HasError()
TAC24 004:610.898 JLINK_HasError()
TAC24 004:610.911 JLINK_ReadMemU32(0xE000ED30, 0x1 Items)
TAC24 004:610.933   CPU_ReadMem(4 bytes @ 0xE000ED30)
TAC24 004:611.527   Data:  02 00 00 00
TAC24 004:611.547 - 0.635ms returns 1 (0x1)
TAC24 004:611.563 JLINK_ReadMemU32(0xE0001028, 0x1 Items)
TAC24 004:611.589   CPU_ReadMem(4 bytes @ 0xE0001028)
TAC24 004:612.076   Data:  00 00 00 00
TAC24 004:612.081   Debug reg: DWT_FUNC[0]
TAC24 004:612.086 - 0.524ms returns 1 (0x1)
TAC24 004:612.090 JLINK_ReadMemU32(0xE0001038, 0x1 Items)
TAC24 004:612.098   CPU_ReadMem(4 bytes @ 0xE0001038)
TAC24 004:612.585   Data:  00 02 00 00
TAC24 004:612.600   Debug reg: DWT_FUNC[1]
TAC24 004:612.606 - 0.515ms returns 1 (0x1)
TAC24 004:612.613 JLINK_ReadMemU32(0xE0001048, 0x1 Items)
TAC24 004:612.621   CPU_ReadMem(4 bytes @ 0xE0001048)
TAC24 004:613.117   Data:  00 00 00 00
TAC24 004:613.130   Debug reg: DWT_FUNC[2]
TAC24 004:613.135 - 0.522ms returns 1 (0x1)
TAC24 004:613.140 JLINK_ReadMemU32(0xE0001058, 0x1 Items)
TAC24 004:613.147   CPU_ReadMem(4 bytes @ 0xE0001058)
TAC24 004:613.553   Data:  00 00 00 00
TAC24 004:613.559   Debug reg: DWT_FUNC[3]
TAC24 004:613.563 - 0.422ms returns 1 (0x1)
TAC24 004:613.586 JLINK_HasError()
TAC24 004:613.590 JLINK_ReadReg(R0)
TAC24 004:613.595 - 0.004ms returns 0x00000449
TAC24 004:613.598 JLINK_ReadReg(R1)
TAC24 004:613.601 - 0.003ms returns 0x00000000
TAC24 004:613.605 JLINK_ReadReg(R2)
TAC24 004:613.608 - 0.003ms returns 0x10000004
TAC24 004:613.611 JLINK_ReadReg(R3)
TAC24 004:613.615 - 0.003ms returns 0x7FFFFFC0
TAC24 004:613.618 JLINK_ReadReg(R4)
TAC24 004:613.621 - 0.003ms returns 0x2000005C
TAC24 004:613.625 JLINK_ReadReg(R5)
TAC24 004:613.628 - 0.003ms returns 0x0000EA60
TAC24 004:613.631 JLINK_ReadReg(R6)
TAC24 004:613.634 - 0.003ms returns 0x00000000
TAC24 004:613.637 JLINK_ReadReg(R7)
TAC24 004:613.641 - 0.003ms returns 0xA5A5A5A5
TAC24 004:613.644 JLINK_ReadReg(R8)
TAC24 004:613.647 - 0.003ms returns 0xA5A5A5A5
TAC24 004:613.650 JLINK_ReadReg(R9)
TAC24 004:613.653 - 0.003ms returns 0xA5A5A5A5
TAC24 004:613.657 JLINK_ReadReg(R10)
TAC24 004:613.660 - 0.003ms returns 0xA5A5A5A5
TAC24 004:613.663 JLINK_ReadReg(R11)
TAC24 004:613.666 - 0.003ms returns 0xA5A5A5A5
TAC24 004:613.670 JLINK_ReadReg(R12)
TAC24 004:613.673 - 0.002ms returns 0xA5A5A5A5
TAC24 004:613.676 JLINK_ReadReg(R13 (SP))
TAC24 004:613.679 - 0.003ms returns 0x20001810
TAC24 004:613.683 JLINK_ReadReg(R14)
TAC24 004:613.686 - 0.003ms returns 0x08002489
TAC24 004:613.689 JLINK_ReadReg(R15 (PC))
TAC24 004:613.692 - 0.003ms returns 0x0800248A
TAC24 004:613.696 JLINK_ReadReg(XPSR)
TAC24 004:613.699 - 0.003ms returns 0x01000000
TAC24 004:613.702 JLINK_ReadReg(MSP)
TAC24 004:613.705 - 0.002ms returns 0x20002EB8
TAC24 004:613.709 JLINK_ReadReg(PSP)
TAC24 004:613.712 - 0.002ms returns 0x20001810
TAC24 004:613.715 JLINK_ReadReg(CFBP)
TAC24 004:613.718 - 0.003ms returns 0x06000000
TAC24 004:613.722 JLINK_ReadReg(FPSCR)
TAC24 004:616.557 - 2.833ms returns 0x00000010
TAC24 004:616.600 JLINK_ReadReg(FPS0)
TAC24 004:616.617 - 0.016ms returns 0x00000000
TAC24 004:616.651 JLINK_ReadReg(FPS1)
TAC24 004:616.668 - 0.016ms returns 0x40890000
TAC24 004:616.682 JLINK_ReadReg(FPS2)
TAC24 004:616.693 - 0.011ms returns 0x44FEA000
TAC24 004:616.705 JLINK_ReadReg(FPS3)
TAC24 004:616.716 - 0.010ms returns 0x44FF4000
TAC24 004:616.728 JLINK_ReadReg(FPS4)
TAC24 004:616.738 - 0.010ms returns 0x00000000
TAC24 004:616.750 JLINK_ReadReg(FPS5)
TAC24 004:616.761 - 0.010ms returns 0x00000000
TAC24 004:616.773 JLINK_ReadReg(FPS6)
TAC24 004:616.783 - 0.010ms returns 0x00000000
TAC24 004:616.795 JLINK_ReadReg(FPS7)
TAC24 004:616.805 - 0.010ms returns 0x00000000
TAC24 004:616.819 JLINK_ReadReg(FPS8)
TAC24 004:616.829 - 0.010ms returns 0x00000000
TAC24 004:616.841 JLINK_ReadReg(FPS9)
TAC24 004:616.853 - 0.011ms returns 0x00000000
TAC24 004:616.865 JLINK_ReadReg(FPS10)
TAC24 004:616.875 - 0.010ms returns 0x00000000
TAC24 004:616.887 JLINK_ReadReg(FPS11)
TAC24 004:616.897 - 0.010ms returns 0x00000000
TAC24 004:616.909 JLINK_ReadReg(FPS12)
TAC24 004:616.920 - 0.010ms returns 0x00000000
TAC24 004:616.931 JLINK_ReadReg(FPS13)
TAC24 004:616.940 - 0.009ms returns 0x00000000
TAC24 004:616.951 JLINK_ReadReg(FPS14)
TAC24 004:616.961 - 0.009ms returns 0x00000000
TAC24 004:616.968 JLINK_ReadReg(FPS15)
TAC24 004:616.973 - 0.005ms returns 0x00000000
TAC24 004:616.979 JLINK_ReadReg(FPS16)
TAC24 004:616.984 - 0.005ms returns 0x00000000
TAC24 004:616.990 JLINK_ReadReg(FPS17)
TAC24 004:616.996 - 0.005ms returns 0x00000000
TAC24 004:617.001 JLINK_ReadReg(FPS18)
TAC24 004:617.007 - 0.005ms returns 0x00000000
TAC24 004:617.013 JLINK_ReadReg(FPS19)
TAC24 004:617.017 - 0.003ms returns 0x00000000
TAC24 004:617.021 JLINK_ReadReg(FPS20)
TAC24 004:617.025 - 0.003ms returns 0x00000000
TAC24 004:617.029 JLINK_ReadReg(FPS21)
TAC24 004:617.032 - 0.003ms returns 0x00000000
TAC24 004:617.036 JLINK_ReadReg(FPS22)
TAC24 004:617.040 - 0.003ms returns 0x00000000
TAC24 004:617.044 JLINK_ReadReg(FPS23)
TAC24 004:617.047 - 0.003ms returns 0x00000000
TAC24 004:617.051 JLINK_ReadReg(FPS24)
TAC24 004:617.055 - 0.003ms returns 0x00000000
TAC24 004:617.059 JLINK_ReadReg(FPS25)
TAC24 004:617.062 - 0.003ms returns 0x00000000
TAC24 004:617.066 JLINK_ReadReg(FPS26)
TAC24 004:617.069 - 0.003ms returns 0x00000000
TAC24 004:617.073 JLINK_ReadReg(FPS27)
TAC24 004:617.075 - 0.003ms returns 0x00000000
TAC24 004:617.079 JLINK_ReadReg(FPS28)
TAC24 004:617.082 - 0.002ms returns 0x00000000
TAC24 004:617.085 JLINK_ReadReg(FPS29)
TAC24 004:617.089 - 0.002ms returns 0x00000000
TAC24 004:617.092 JLINK_ReadReg(FPS30)
TAC24 004:617.095 - 0.003ms returns 0x00000000
TAC24 004:617.098 JLINK_ReadReg(FPS31)
TAC24 004:617.101 - 0.002ms returns 0x00000000
TAC24 004:617.108 JLINK_ReadMemEx(0x2000006C, 0x4 Bytes, Flags = 0x02000000)
TAC24 004:617.116   CPU_ReadMem(64 bytes @ 0x20000040)
TAC24 004:617.702    -- Updating C cache (64 bytes @ 0x20000040)
TAC24 004:617.717    -- Read from C cache (4 bytes @ 0x2000006C)
TAC24 004:617.722   Data:  04 00 00 00
TAC24 004:617.727 - 0.618ms returns 4 (0x4)
TAC24 004:617.734 JLINK_ReadMemEx(0x20000064, 0x4 Bytes, Flags = 0x02000000)
TAC24 004:617.739    -- Read from C cache (4 bytes @ 0x20000064)
TAC24 004:617.744   Data:  28 18 00 20
TAC24 004:617.748 - 0.014ms returns 4 (0x4)
TD538 004:618.176 JLINK_ReadMemEx(0x20001814, 0x4 Bytes, Flags = 0x02000000)
TD538 004:618.195   CPU_ReadMem(64 bytes @ 0x20001800)
TD538 004:618.810    -- Updating C cache (64 bytes @ 0x20001800)
TD538 004:618.815    -- Read from C cache (4 bytes @ 0x20001814)
TD538 004:618.820   Data:  35 24 00 08
TD538 004:618.824 - 0.649ms returns 4 (0x4)
TD538 004:618.989 JLINK_ReadMemEx(0x20001810, 0x4 Bytes, Flags = 0x02000000)
TD538 004:618.994    -- Read from C cache (4 bytes @ 0x20001810)
TD538 004:618.998   Data:  00 00 00 20
TD538 004:619.003 - 0.014ms returns 4 (0x4)
TD538 004:619.006 JLINK_ReadMemEx(0x20001814, 0x4 Bytes, Flags = 0x02000000)
TD538 004:619.010    -- Read from C cache (4 bytes @ 0x20001814)
TD538 004:619.014   Data:  35 24 00 08
TD538 004:619.021 - 0.014ms returns 4 (0x4)
TD538 004:620.807 JLINK_ReadMemEx(0x2000005C, 0x2 Bytes, Flags = 0x02000000)
TD538 004:620.821    -- Read from C cache (2 bytes @ 0x2000005C)
TD538 004:620.827   Data:  74 04
TD538 004:620.831 - 0.024ms returns 2 (0x2)
TD538 004:620.836 JLINK_ReadMemEx(0x2000005E, 0x2 Bytes, Flags = 0x02000000)
TD538 004:620.839    -- Read from C cache (2 bytes @ 0x2000005E)
TD538 004:620.843   Data:  00 00
TD538 004:620.848 - 0.012ms returns 2 (0x2)
TD538 004:620.851 JLINK_ReadMemEx(0x20000060, 0x2 Bytes, Flags = 0x02000000)
TD538 004:620.854    -- Read from C cache (2 bytes @ 0x20000060)
TD538 004:620.859   Data:  00 00
TD538 004:620.863 - 0.011ms returns 2 (0x2)
TD538 004:621.210 JLINK_ReadMemEx(0x2000005C, 0x2 Bytes, Flags = 0x02000000)
TD538 004:621.217    -- Read from C cache (2 bytes @ 0x2000005C)
TD538 004:621.221   Data:  74 04
TD538 004:621.225 - 0.015ms returns 2 (0x2)
TD538 004:621.229 JLINK_ReadMemEx(0x2000005E, 0x2 Bytes, Flags = 0x02000000)
TD538 004:621.233    -- Read from C cache (2 bytes @ 0x2000005E)
TD538 004:621.237   Data:  00 00
TD538 004:621.241 - 0.011ms returns 2 (0x2)
TD538 004:621.245 JLINK_ReadMemEx(0x20000060, 0x2 Bytes, Flags = 0x02000000)
TD538 004:621.248    -- Read from C cache (2 bytes @ 0x20000060)
TD538 004:621.253   Data:  00 00
TD538 004:621.257 - 0.011ms returns 2 (0x2)
TD538 004:623.010 JLINK_ReadMemEx(0x20000144, 0x4 Bytes, Flags = 0x02000000)
TD538 004:623.024   CPU_ReadMem(64 bytes @ 0x20000140)
TD538 004:623.561    -- Updating C cache (64 bytes @ 0x20000140)
TD538 004:623.575    -- Read from C cache (4 bytes @ 0x20000144)
TD538 004:623.580   Data:  00 00 00 00
TD538 004:623.585 - 0.575ms returns 4 (0x4)
TD538 004:623.990 JLINK_ReadMemEx(0x2000005C, 0x2 Bytes, Flags = 0x02000000)
TD538 004:624.000    -- Read from C cache (2 bytes @ 0x2000005C)
TD538 004:624.005   Data:  74 04
TD538 004:624.009 - 0.019ms returns 2 (0x2)
TD538 004:624.023 JLINK_ReadMemEx(0x2000005C, 0x2 Bytes, Flags = 0x02000000)
TD538 004:624.027    -- Read from C cache (2 bytes @ 0x2000005C)
TD538 004:624.031   Data:  74 04
TD538 004:624.036 - 0.012ms returns 2 (0x2)
TD538 004:628.457 JLINK_ReadMemEx(0x20000060, 0x2 Bytes, Flags = 0x02000000)
TD538 004:628.470    -- Read from C cache (2 bytes @ 0x20000060)
TD538 004:628.475   Data:  00 00
TD538 004:628.480 - 0.023ms returns 2 (0x2)
TD538 004:628.491 JLINK_ReadMemEx(0x20000060, 0x2 Bytes, Flags = 0x02000000)
TD538 004:628.494    -- Read from C cache (2 bytes @ 0x20000060)
TD538 004:628.499   Data:  00 00
TD538 004:628.503 - 0.012ms returns 2 (0x2)
TD538 004:636.140 JLINK_ReadMemEx(0x0800248A, 0x2 Bytes, Flags = 0x02000000)
TD538 004:636.160   CPU_ReadMem(64 bytes @ 0x08002480)
TD538 004:636.680    -- Updating C cache (64 bytes @ 0x08002480)
TD538 004:636.687    -- Read from C cache (2 bytes @ 0x0800248A)
TD538 004:636.691   Data:  00 EE
TD538 004:636.696 - 0.556ms returns 2 (0x2)
TD538 004:636.701 JLINK_ReadMemEx(0x0800248C, 0x3C Bytes, Flags = 0x02000000)
TD538 004:636.705   CPU_ReadMem(64 bytes @ 0x080024C0)
TD538 004:637.328    -- Updating C cache (64 bytes @ 0x080024C0)
TD538 004:637.333    -- Read from C cache (60 bytes @ 0x0800248C)
TD538 004:637.338   Data:  10 0A DF ED 20 0A 20 80 B8 EE 40 0A 1F 48 20 EE ...
TD538 004:637.342 - 0.641ms returns 60 (0x3C)
TD538 004:637.346 JLINK_ReadMemEx(0x0800248C, 0x2 Bytes, Flags = 0x02000000)
TD538 004:637.349    -- Read from C cache (2 bytes @ 0x0800248C)
TD538 004:637.354   Data:  10 0A
TD538 004:637.358 - 0.011ms returns 2 (0x2)
TD538 005:551.957 JLINK_ReadMemEx(0x08002482, 0x2 Bytes, Flags = 0x02000000)
TD538 005:551.988    -- Read from C cache (2 bytes @ 0x08002482)
TD538 005:551.994   Data:  20 48
TD538 005:552.000 - 0.043ms returns 2 (0x2)
TD538 005:552.005 JLINK_ReadMemEx(0x08002484, 0x3C Bytes, Flags = 0x02000000)
TD538 005:552.008    -- Read from C cache (60 bytes @ 0x08002484)
TD538 005:552.013   Data:  01 F0 9E FA 80 B2 00 EE 10 0A DF ED 20 0A 20 80 ...
TD538 005:552.017 - 0.012ms returns 60 (0x3C)
TD538 005:552.021 JLINK_ReadMemEx(0x08002484, 0x2 Bytes, Flags = 0x02000000)
TD538 005:552.035    -- Read from C cache (2 bytes @ 0x08002484)
TD538 005:552.040   Data:  01 F0
TD538 005:552.044 - 0.023ms returns 2 (0x2)
TD538 005:552.053 JLINK_ReadMemEx(0x08002484, 0x3C Bytes, Flags = 0x02000000)
TD538 005:552.057    -- Read from C cache (60 bytes @ 0x08002484)
TD538 005:552.062   Data:  01 F0 9E FA 80 B2 00 EE 10 0A DF ED 20 0A 20 80 ...
TD538 005:552.066 - 0.012ms returns 60 (0x3C)
TD538 005:552.069 JLINK_ReadMemEx(0x08002484, 0x2 Bytes, Flags = 0x02000000)
TD538 005:552.073    -- Read from C cache (2 bytes @ 0x08002484)
TD538 005:552.077   Data:  01 F0
TD538 005:552.081 - 0.011ms returns 2 (0x2)
TD538 005:552.085 JLINK_ReadMemEx(0x08002486, 0x2 Bytes, Flags = 0x02000000)
TD538 005:552.088    -- Read from C cache (2 bytes @ 0x08002486)
TD538 005:552.092   Data:  9E FA
TD538 005:552.096 - 0.011ms returns 2 (0x2)
TD538 005:552.111 JLINK_ReadMemEx(0x08002488, 0x3C Bytes, Flags = 0x02000000)
TD538 005:552.115    -- Read from C cache (60 bytes @ 0x08002488)
TD538 005:552.119   Data:  80 B2 00 EE 10 0A DF ED 20 0A 20 80 B8 EE 40 0A ...
TD538 005:552.123 - 0.012ms returns 60 (0x3C)
TD538 005:552.127 JLINK_ReadMemEx(0x08002488, 0x2 Bytes, Flags = 0x02000000)
TD538 005:552.130    -- Read from C cache (2 bytes @ 0x08002488)
TD538 005:552.134   Data:  80 B2
TD538 005:552.138 - 0.011ms returns 2 (0x2)
TD538 005:552.143 JLINK_ReadMemEx(0x0800248A, 0x2 Bytes, Flags = 0x02000000)
TD538 005:552.145    -- Read from C cache (2 bytes @ 0x0800248A)
TD538 005:552.150   Data:  00 EE
TD538 005:552.154 - 0.011ms returns 2 (0x2)
TD538 005:686.551 JLINK_ReadMemEx(0x2000005C, 0x2 Bytes, Flags = 0x02000000)
TD538 005:686.588    -- Read from C cache (2 bytes @ 0x2000005C)
TD538 005:686.593   Data:  74 04
TD538 005:686.599 - 0.049ms returns 2 (0x2)
TD538 006:034.448 JLINK_ReadMemEx(0x08002478, 0x3C Bytes, Flags = 0x02000000)
TD538 006:034.492   CPU_ReadMem(64 bytes @ 0x08002440)
TD538 006:035.100    -- Updating C cache (64 bytes @ 0x08002440)
TD538 006:035.106    -- Read from C cache (60 bytes @ 0x08002478)
TD538 006:035.112   Data:  23 48 01 F0 A3 FA 23 4C 60 80 20 48 01 F0 9E FA ...
TD538 006:035.117 - 0.669ms returns 60 (0x3C)
TD538 006:035.121 JLINK_ReadMemEx(0x08002478, 0x2 Bytes, Flags = 0x02000000)
TD538 006:035.125    -- Read from C cache (2 bytes @ 0x08002478)
TD538 006:035.130   Data:  23 48
TD538 006:035.134 - 0.012ms returns 2 (0x2)
TD538 006:035.139 JLINK_ReadMemEx(0x0800247A, 0x2 Bytes, Flags = 0x02000000)
TD538 006:035.142    -- Read from C cache (2 bytes @ 0x0800247A)
TD538 006:035.146   Data:  01 F0
TD538 006:035.151 - 0.013ms returns 2 (0x2)
TD538 006:035.161 JLINK_ReadMemEx(0x0800247A, 0x2 Bytes, Flags = 0x02000000)
TD538 006:035.164    -- Read from C cache (2 bytes @ 0x0800247A)
TD538 006:035.168   Data:  01 F0
TD538 006:035.172 - 0.011ms returns 2 (0x2)
TD538 006:035.176 JLINK_ReadMemEx(0x0800247C, 0x3C Bytes, Flags = 0x02000000)
TD538 006:035.179    -- Read from C cache (60 bytes @ 0x0800247C)
TD538 006:035.184   Data:  A3 FA 23 4C 60 80 20 48 01 F0 9E FA 80 B2 00 EE ...
TD538 006:035.188 - 0.012ms returns 60 (0x3C)
TD538 006:035.191 JLINK_ReadMemEx(0x0800247C, 0x2 Bytes, Flags = 0x02000000)
TD538 006:035.195    -- Read from C cache (2 bytes @ 0x0800247C)
TD538 006:035.199   Data:  A3 FA
TD538 006:035.203 - 0.011ms returns 2 (0x2)
TD538 006:035.220 JLINK_ReadMemEx(0x0800247E, 0x2 Bytes, Flags = 0x02000000)
TD538 006:035.223    -- Read from C cache (2 bytes @ 0x0800247E)
TD538 006:035.227   Data:  23 4C
TD538 006:035.232 - 0.011ms returns 2 (0x2)
TD538 006:035.235 JLINK_ReadMemEx(0x08002480, 0x3C Bytes, Flags = 0x02000000)
TD538 006:035.239    -- Read from C cache (60 bytes @ 0x08002480)
TD538 006:035.243   Data:  60 80 20 48 01 F0 9E FA 80 B2 00 EE 10 0A DF ED ...
TD538 006:035.248 - 0.012ms returns 60 (0x3C)
TD538 006:035.251 JLINK_ReadMemEx(0x08002480, 0x2 Bytes, Flags = 0x02000000)
TD538 006:035.254    -- Read from C cache (2 bytes @ 0x08002480)
TD538 006:035.258   Data:  60 80
TD538 006:035.273 - 0.021ms returns 2 (0x2)
TD538 006:035.278 JLINK_ReadMemEx(0x08002480, 0x3C Bytes, Flags = 0x02000000)
TD538 006:035.281    -- Read from C cache (60 bytes @ 0x08002480)
TD538 006:035.285   Data:  60 80 20 48 01 F0 9E FA 80 B2 00 EE 10 0A DF ED ...
TD538 006:035.290 - 0.011ms returns 60 (0x3C)
TD538 006:035.293 JLINK_ReadMemEx(0x08002480, 0x2 Bytes, Flags = 0x02000000)
TD538 006:035.296    -- Read from C cache (2 bytes @ 0x08002480)
TD538 006:035.301   Data:  60 80
TD538 006:035.305 - 0.011ms returns 2 (0x2)
TD538 006:035.308 JLINK_ReadMemEx(0x08002482, 0x2 Bytes, Flags = 0x02000000)
TD538 006:035.311    -- Read from C cache (2 bytes @ 0x08002482)
TD538 006:035.315   Data:  20 48
TD538 006:035.320 - 0.011ms returns 2 (0x2)
TD538 007:352.602 JLINK_ReadMemEx(0x2000005E, 0x2 Bytes, Flags = 0x02000000)
TD538 007:352.657    -- Read from C cache (2 bytes @ 0x2000005E)
TD538 007:352.664   Data:  00 00
TD538 007:352.669 - 0.068ms returns 2 (0x2)
TD538 007:360.477 JLINK_ReadMemEx(0x2000005E, 0x2 Bytes, Flags = 0x02000000)
TD538 007:360.503    -- Read from C cache (2 bytes @ 0x2000005E)
TD538 007:360.509   Data:  00 00
TD538 007:360.514 - 0.038ms returns 2 (0x2)
TAC24 010:020.138 JLINK_ReadMemEx(0x0800248A, 0x2 Bytes, Flags = 0x02000000)
TAC24 010:020.176    -- Read from C cache (2 bytes @ 0x0800248A)
TAC24 010:020.182   Data:  00 EE
TAC24 010:020.190 - 0.052ms returns 2 (0x2)
TAC24 010:020.194 JLINK_HasError()
TAC24 010:020.200 JLINK_HasError()
TAC24 010:020.205 JLINK_Go()
TAC24 010:020.689   CPU_ReadMem(4 bytes @ 0xE0001000)
TAC24 010:021.163   CPU_WriteMem(4 bytes @ 0xE0002008)
TAC24 010:022.363 - 2.158ms 
TAC24 010:123.050 JLINK_HasError()
TAC24 010:123.115 JLINK_IsHalted()
TAC24 010:123.937 - 0.821ms returns FALSE
TAC24 010:224.304 JLINK_HasError()
